EXPLAIN
TAG	EISPOT
TITLE	LABEL	Potentiostatic EIS	Test Identifier
DATE	LABEL	10/6/2022	Date
TIME	LABEL	19:04:14	Time
NOTES	NOTES	1	Notes...
	
PSTAT	PSTAT	REF3000-21114	Potentiostat
VDC	POTEN	0.00000E+000	T	DC Voltage (V)
FREQINIT	QUANT	1.00000E+005	Initial Freq. (Hz)
FREQFINAL	QUANT	2.00000E-001	Final Freq. (Hz)
PTSPERDEC	QUANT	1.00000E+001	Points/decade
VAC	QUANT	1.00000E+001	AC Voltage (mV rms)
AREA	QUANT	1.00000E+000	Sample Area (cm^2)
SPEED	SELECTOR	1	Optimize for:
DRIFTCOR	SELECTOR	0	Drift Correction
ZGUESS	QUANT	1.00000E+002	Estimated Z (ohms)
EOC	QUANT	0	Open Circuit (V)
SEQUENCER	TOGGLE	TRUE	Run as Sequence
PSTATMODEL	IQUANT	5	Pstat Model
PSTATSECTION	LABEL	REF3000-21114	Pstat Section
PSTATSERIALNO	LABEL	21114	Pstat Serial Number
CTRLMODE	IQUANT	1	Control Mode
ELECTROMETER	IQUANT	0	RE=0 or CS=1
IESTAB	IQUANT	0	I/E Stability
CASPEED	IQUANT	3	Control Amp Speed
CONVENTION	IQUANT	1	Current Convention
ICHRANGE	IQUANT	2	Ich Range
ICHRANGEMODE	TOGGLE	F	Ich Auto Range
ICHOFFSETENABLE	TOGGLE	T	Ich Offset Enable
ICHOFFSET	QUANT	0	Ich Offset (V)
ICHFILTER	IQUANT	3	Ich Filter
VCHRANGE	IQUANT	2	Vch Range
VCHRANGEMODE	TOGGLE	F	Vch Auto Range
VCHOFFSETENABLE	TOGGLE	T	Vch Offset Enable
VCHOFFSET	QUANT	0	Vch Offset (V)
VCHFILTER	IQUANT	3	Vch Filter
ACHRANGE	IQUANT	2	Ach Range
ACHOFFSETENABLE	TOGGLE	F	Ach Offset Enable
ACHOFFSET	QUANT	0	Ach Offset (V)
ACHFILTER	IQUANT	1	Ach Filter
IERANGELOWERLIMIT	IQUANT	2	I/E Range Lower Limit
IERANGEMODE	TOGGLE	F	I/E AutoRange
IERANGE	IQUANT	11	I/E Range
POSFEEDENABLE	TOGGLE	F	Positive Feedback IR Comp
POSFEEDRESISTANCE	QUANT	0	Positive Feedback Resistance (ohm)
ACHSELECT	IQUANT	4	Ach Select
SENSECABLEID	IQUANT	13	Sense Cable ID
PWRCABLEID	IQUANT	13	Power Cable ID
DCCALDATE	LABEL		DC Calibration Date
ACCALDATE	LABEL		AC Calibration Date
THERMOSELECT	IQUANT	1	Thermo Select
FRAMEWORKVERSION	LABEL	7.8.6	Framework Version
INSTRUMENTVERSION	LABEL	4.50	Instrument Version
COMPLIANCEVOLTAGE	IQUANT	0	Compliance Voltage
ZCURVE	TABLE
	Pt	Time	Freq	Zreal	Zimag	Zsig	Zmod	Zphz	Idc	Vdc	IERange
	#	s	Hz	ohm	ohm	V	ohm	°	A	V	#
	0	4	100078.1	0.3168399	0.4896766	1	0.5832415	57.09555	-0.0173454	-0.0004266	11
	1	6	79453.13	0.3175187	0.387636	1	0.5010786	50.67857	-0.0115133	-0.0004223	11
	2	8	63140.62	0.3111107	0.3130759	1	0.4413688	45.18039	-0.0091852	-0.0004314	12
	3	9	50203.12	0.3181034	0.2416518	1	0.3994814	37.22264	-0.0088603	-0.0004509	11
	4	11	39890.62	0.318693	0.1893539	1	0.3707022	30.717	-0.0083385	-0.0004697	11
	5	12	31640.63	0.3195498	0.1470395	1	0.3517565	24.70933	-0.007963	-0.0004264	11
	6	14	25171.88	0.3208333	0.113388	1	0.3402805	19.46428	-0.0076568	-0.0004235	11
	7	15	20015.62	0.3221899	0.0862902	1	0.3335451	14.99331	-0.0074143	-0.0004233	11
	8	17	15890.62	0.3238858	0.0641295	1	0.3301736	11.19973	-0.0071966	-0.0004115	11
	9	18	12609.38	0.3256658	0.045979	1	0.3288955	8.036172	-0.0070365	-0.0004054	11
	10	19	10078.13	0.3276906	0.0313662	1	0.3291884	5.467633	-0.0068787	-0.0004125	11
	11	21	8015.625	0.329989	0.0187834	1	0.3305231	3.257833	-0.0067041	-0.0004066	11
	12	22	6328.125	0.3326213	0.0076575	1	0.3327094	1.318813	-0.006575	-0.0004351	11
	13	24	5015.625	0.3356618	-0.0018905	1	0.3356671	-0.3226886	-0.0064277	-0.0004116	11
	14	25	3984.375	0.3391455	-0.0103659	1	0.3393038	-1.750692	-0.0062844	-0.0004121	11
	15	27	3170.956	0.3431083	-0.0181765	1	0.3435894	-3.032464	-0.0061504	-0.0004109	11
	16	28	2527.573	0.3477817	-0.0254363	1	0.3487107	-4.183093	-0.0060262	-0.0004101	11
	17	30	1976.103	0.3538111	-0.0328765	1	0.3553353	-5.308736	-0.0059027	-0.0004139	11
	18	31	1577.524	0.3600223	-0.0393313	1	0.3621643	-6.234662	-0.0057987	-0.0004159	11
	19	33	1265.625	0.3670053	-0.0453792	1	0.3698002	-7.048695	-0.0056892	-0.000427	11
	20	34	998.264	0.3755842	-0.0514591	1	0.3790931	-7.801559	-0.005553	-0.0004315	11
	21	36	796.875	0.3846096	-0.0568495	1	0.3887884	-8.408061	-0.0054528	-0.0004281	11
	22	37	627.7902	0.3954163	-0.0618594	1	0.4002257	-8.891353	-0.0053315	-0.0004172	11
	23	39	505.5147	0.4064315	-0.0650721	1	0.4116077	-9.096191	-0.005186	-0.0003759	11
	24	40	397.9953	0.4185989	-0.0684154	1	0.424153	-9.282301	-0.0050882	-0.0003788	11
	25	42	315.5048	0.4309657	-0.0705986	1	0.43671	-9.303275	-0.0049749	-0.0003764	11
	26	43	252.4038	0.4429476	-0.0717288	1	0.4487177	-9.198354	-0.0049154	-0.0003814	11
	27	45	198.6229	0.4556594	-0.071916	1	0.4612997	-8.968923	-0.0048319	-0.0003754	11
	28	46	158.3615	0.4673229	-0.0713689	1	0.4727412	-8.683039	-0.004708	-0.0003808	11
	29	48	125.558	0.4787816	-0.0702233	1	0.4839041	-8.344121	-0.0046674	-0.0003775	11
	30	49	100.4464	0.4889411	-0.0688876	1	0.4937701	-8.0197	-0.0045962	-0.0003816	11
	31	51	79.00281	0.4992527	-0.0674656	1	0.5037905	-7.695937	-0.0044769	-0.0003806	11
	32	52	63.3446	0.508216	-0.0663881	1	0.5125338	-7.442388	-0.004436	-0.0003845	11
	33	54	49.86702	0.5172709	-0.0656656	1	0.5214223	-7.23479	-0.0043164	-0.0003868	11
	34	55	39.72458	0.5255129	-0.0656169	1	0.5295936	-7.117268	-0.0043339	-0.0003801	11
	35	57	31.6723	0.5335182	-0.0662277	1	0.537613	-7.076153	-0.0042274	-0.0003846	11
	36	58	24.93351	0.5420395	-0.0675326	1	0.5462302	-7.101878	-0.0041192	-0.0003873	11
	37	60	19.86229	0.5498499	-0.0689213	1	0.5541525	-7.14452	-0.0044315	-0.0003816	11
	38	61	15.83615	0.5581377	-0.0726859	1	0.5628507	-7.419829	-0.0043131	-0.0003836	11
	39	62	12.40079	0.5679544	-0.0772017	1	0.5731774	-7.740739	-0.0042894	-0.0003816	11
	40	64	9.93114	0.5759776	-0.0824464	1	0.5818484	-8.146078	-0.0043397	-0.0003832	11
	41	65	7.944915	0.5846622	-0.0886836	1	0.5913499	-8.625079	-0.0038872	-0.0003835	11
	42	67	6.317385	0.5945935	-0.0966869	1	0.6024033	-9.236027	-0.0040453	-0.0003837	11
	43	69	5.008013	0.6047102	-0.1047725	1	0.6137196	-9.82952	-0.0038024	-0.0003831	11
	44	71	3.945707	0.6163511	-0.1183237	1	0.6276059	-10.86712	-0.0040526	-0.0003822	11
	45	74	3.158693	0.6278133	-0.1306078	1	0.641255	-11.75196	-0.0035365	-0.0003799	11
	46	76	2.504006	0.6396579	-0.1502606	1	0.6570696	-13.21954	-0.0035897	-0.0003902	11
	47	79	1.998082	0.6535175	-0.1711072	1	0.6755463	-14.67211	-0.0039011	-0.0003698	11
	48	82	1.584686	0.6715381	-0.1927398	1	0.6986501	-16.01414	-0.0034764	-0.0004008	11
	49	86	1.266892	0.6906808	-0.2180366	1	0.7242789	-17.52005	-0.0033405	-0.0003885	11
	50	90	0.999041	0.7125496	-0.2518055	1	0.7557334	-19.46273	-0.0038379	-0.0003799	11
	51	94	0.7923428	0.7361459	-0.2868268	1	0.7900509	-21.28753	-0.0036967	-0.0004416	11
	52	101	0.6334459	0.7593033	-0.3294758	1	0.8277052	-23.45692	-0.0035561	-0.0004395	11
	53	108	0.5040323	0.7859865	-0.3809204	1	0.8734272	-25.85668	-0.0034707	-0.0004397	11
	54	117	0.400641	0.8154202	-0.4430436	1	0.9280074	-28.51663	-0.0034535	-0.0004019	10
	55	128	0.316723	0.8466562	-0.5207303	1	0.993975	-31.59332	-0.0034008	-0.0004008	10
	56	142	0.2520161	0.8823677	-0.613638	1	1.074767	-34.81648	-0.0033616	-0.0004011	10
	57	159	0.2003205	0.9251243	-0.7261233	1	1.176057	-38.12811	-0.0033478	-0.0004029	10
