EXPLAIN
TAG	EISPOT
TITLE	LABEL	Potentiostatic EIS	Test Identifier
DATE	LABEL	11/4/2022	Date
TIME	LABEL	18:20:58	Time
NOTES	NOTES	1	Notes...
	
PSTAT	PSTAT	REF3000-21114	Potentiostat
VDC	POTEN	0.00000E+000	T	DC Voltage (V)
FREQINIT	QUANT	1.00000E+005	Initial Freq. (Hz)
FREQFINAL	QUANT	2.00000E-001	Final Freq. (Hz)
PTSPERDEC	QUANT	1.00000E+001	Points/decade
VAC	QUANT	1.00000E+001	AC Voltage (mV rms)
AREA	QUANT	1.00000E+000	Sample Area (cm^2)
SPEED	SELECTOR	1	Optimize for:
DRIFTCOR	SELECTOR	0	Drift Correction
ZGUESS	QUANT	1.00000E+002	Estimated Z (ohms)
EOC	QUANT	0	Open Circuit (V)
SEQUENCER	TOGGLE	TRUE	Run as Sequence
PSTATMODEL	IQUANT	5	Pstat Model
PSTATSECTION	LABEL	REF3000-21114	Pstat Section
PSTATSERIALNO	LABEL	21114	Pstat Serial Number
CTRLMODE	IQUANT	1	Control Mode
ELECTROMETER	IQUANT	0	RE=0 or CS=1
IESTAB	IQUANT	0	I/E Stability
CASPEED	IQUANT	3	Control Amp Speed
CONVENTION	IQUANT	1	Current Convention
ICHRANGE	IQUANT	2	Ich Range
ICHRANGEMODE	TOGGLE	F	Ich Auto Range
ICHOFFSETENABLE	TOGGLE	T	Ich Offset Enable
ICHOFFSET	QUANT	0	Ich Offset (V)
ICHFILTER	IQUANT	3	Ich Filter
VCHRANGE	IQUANT	2	Vch Range
VCHRANGEMODE	TOGGLE	F	Vch Auto Range
VCHOFFSETENABLE	TOGGLE	T	Vch Offset Enable
VCHOFFSET	QUANT	0	Vch Offset (V)
VCHFILTER	IQUANT	3	Vch Filter
ACHRANGE	IQUANT	2	Ach Range
ACHOFFSETENABLE	TOGGLE	F	Ach Offset Enable
ACHOFFSET	QUANT	0	Ach Offset (V)
ACHFILTER	IQUANT	1	Ach Filter
IERANGELOWERLIMIT	IQUANT	2	I/E Range Lower Limit
IERANGEMODE	TOGGLE	F	I/E AutoRange
IERANGE	IQUANT	11	I/E Range
POSFEEDENABLE	TOGGLE	F	Positive Feedback IR Comp
POSFEEDRESISTANCE	QUANT	0	Positive Feedback Resistance (ohm)
ACHSELECT	IQUANT	4	Ach Select
SENSECABLEID	IQUANT	13	Sense Cable ID
PWRCABLEID	IQUANT	13	Power Cable ID
DCCALDATE	LABEL	10/31/2022	DC Calibration Date
ACCALDATE	LABEL	10/31/2022	AC Calibration Date
THERMOSELECT	IQUANT	1	Thermo Select
FRAMEWORKVERSION	LABEL	7.8.6	Framework Version
INSTRUMENTVERSION	LABEL	4.50	Instrument Version
COMPLIANCEVOLTAGE	IQUANT	0	Compliance Voltage
ZCURVE	TABLE
	Pt	Time	Freq	Zreal	Zimag	Zsig	Zmod	Zphz	Idc	Vdc	IERange
	#	s	Hz	ohm	ohm	V	ohm	°	A	V	#
	0	3	100078.1	0.239865	0.548761	1	0.5988938	66.38972	-0.0210137	-3.327486E-005	11
	1	5	79453.13	0.2413489	0.4341133	1	0.4966927	60.92776	-0.0160641	-4.249203E-005	11
	2	7	63140.62	0.2355001	0.3478836	1	0.4200991	55.90393	-0.013697	-9.749689E-006	12
	3	8	50203.12	0.2435136	0.2698249	1	0.3634616	47.93415	-0.0124298	-6.031861E-005	11
	4	10	39890.62	0.2449201	0.2112826	1	0.3234598	40.783	-0.011525	-6.639752E-005	11
	5	11	31640.63	0.2466233	0.1638652	1	0.2960994	33.60146	-0.0107801	-8.987799E-005	11
	6	13	25171.88	0.2485558	0.1264052	1	0.2788517	26.95601	-0.0101175	-8.433461E-005	11
	7	14	20015.62	0.250789	0.096253	1	0.2686257	20.99684	-0.0096022	-7.866396E-005	11
	8	16	15890.62	0.2531547	0.0718871	1	0.2631635	15.85269	-0.0091536	-4.985064E-005	11
	9	17	12609.38	0.2557638	0.0522878	1	0.2610539	11.5542	-0.0087735	-4.80514E-005	11
	10	19	10078.13	0.2585268	0.0370604	1	0.2611697	8.157901	-0.0084336	-7.636853E-005	11
	11	20	8015.625	0.2613076	0.0242916	1	0.2624343	5.311039	-0.008132	-7.015135E-005	11
	12	22	6328.125	0.264259	0.0136731	1	0.2646125	2.961914	-0.0078444	-4.29897E-005	11
	13	23	5015.625	0.2674045	0.0049744	1	0.2674508	1.065714	-0.0075941	-5.177091E-005	11
	14	25	3984.375	0.2704782	-0.0022683	1	0.2704878	-0.4804963	-0.0073479	-4.607247E-005	11
	15	26	3170.956	0.2736546	-0.0084698	1	0.2737857	-1.77278	-0.0070987	-5.667325E-005	11
	16	27	2527.573	0.2771335	-0.0139859	1	0.2774861	-2.88906	-0.0068881	-6.025844E-005	11
	17	29	1976.103	0.281064	-0.0192851	1	0.2817249	-3.925185	-0.0066468	-4.271859E-005	11
	18	30	1577.524	0.2849004	-0.0239838	1	0.2859081	-4.811992	-0.006481	-4.996779E-005	11
	19	32	1265.625	0.2890251	-0.0283074	1	0.290408	-5.593766	-0.0063126	-6.812801E-005	11
	20	33	998.264	0.2937552	-0.0329575	1	0.2955983	-6.401453	-0.0061291	-4.421325E-005	11
	21	35	796.875	0.2987076	-0.0374177	1	0.3010421	-7.139978	-0.0059682	-4.062336E-005	11
	22	36	627.7902	0.3045355	-0.0423465	1	0.3074656	-7.916383	-0.0058251	-4.778873E-005	11
	23	38	505.5147	0.3101914	-0.0470781	1	0.3137436	-8.629987	-0.005618	-2.793047E-005	11
	24	39	397.9953	0.3170473	-0.0525374	1	0.3213708	-9.408896	-0.0054924	-2.965438E-005	11
	25	41	315.5048	0.3243519	-0.0582586	1	0.3295425	-10.18264	-0.0053591	-2.862589E-005	11
	26	42	252.4038	0.3320886	-0.0641755	1	0.3382326	-10.93747	-0.0052478	-2.923522E-005	11
	27	44	198.6229	0.3411727	-0.0710594	1	0.3484942	-11.76535	-0.0051053	-2.789258E-005	11
	28	45	158.3615	0.3506128	-0.0781174	1	0.3592098	-12.56048	-0.0050037	-3.200991E-005	11
	29	47	125.558	0.3612348	-0.0859082	1	0.3713095	-13.37748	-0.0048878	-2.992057E-005	11
	30	48	100.4464	0.3723005	-0.0939803	1	0.3839791	-14.16728	-0.0047719	-3.325438E-005	11
	31	50	79.00281	0.3851402	-0.103477	1	0.3987988	-15.03872	-0.0046891	-3.553485E-005	11
	32	51	63.3446	0.3977608	-0.1130201	1	0.413506	-15.86201	-0.0045772	-3.603043E-005	11
	33	53	49.86702	0.4122663	-0.1244625	1	0.4306442	-16.79898	-0.004482	-3.585816E-005	11
	34	54	39.72458	0.4267918	-0.136831	1	0.4481896	-17.77604	-0.0044027	-3.145079E-005	11
	35	56	31.6723	0.4418565	-0.1509702	1	0.466936	-18.86389	-0.0042694	-3.398412E-005	11
	36	57	24.93351	0.4583008	-0.1686058	1	0.4883314	-20.19823	-0.0041863	-3.68619E-005	11
	37	59	19.86229	0.4755697	-0.1888767	1	0.511704	-21.66094	-0.0041875	-2.808617E-005	11
	38	60	15.83615	0.4927105	-0.2134827	1	0.5369716	-23.42623	-0.0041344	-2.902416E-005	11
	39	61	12.40079	0.5121294	-0.2454528	1	0.5679116	-25.60742	-0.0040397	-3.132139E-005	11
	40	63	9.93114	0.5336096	-0.2810094	1	0.60308	-27.77218	-0.0039471	-3.099399E-005	11
	41	64	7.944915	0.5557256	-0.3243007	1	0.6434298	-30.26624	-0.0038344	-2.958522E-005	11
	42	66	6.317385	0.5817656	-0.3780646	1	0.6938184	-33.01812	-0.0037848	-2.801287E-005	11
	43	68	5.008013	0.6129799	-0.4436329	1	0.7566733	-35.89444	-0.0037069	-3.389378E-005	11
	44	70	3.945707	0.6487081	-0.5297372	1	0.8375224	-39.23519	-0.0036047	-3.690007E-005	11
	45	72	3.158693	0.6915712	-0.6217406	1	0.9299635	-41.95638	-0.0034424	-3.032565E-005	11
	46	75	2.504006	0.744865	-0.7401867	1	1.050095	-44.8195	-0.0033921	8.776593E-005	10
	47	78	1.998082	0.8047876	-0.8784847	1	1.191393	-47.50692	-0.0032773	0.0001042	10
	48	81	1.584686	0.8845133	-1.043678	1	1.368074	-49.71884	-0.0031519	7.079352E-005	10
	49	84	1.266892	0.976806	-1.24132	1	1.579565	-51.80046	-0.0030145	9.007581E-005	10
	50	89	0.999041	1.104094	-1.493183	1	1.857045	-53.51993	-0.0029151	7.043859E-005	10
	51	93	0.7923428	1.256559	-1.780813	1	2.179503	-54.79283	-0.0027766	0.0001772	10
	52	99	0.6334459	1.443879	-2.108235	1	2.555277	-55.59371	-0.0026158	0.0001739	10
	53	107	0.5040323	1.684047	-2.498481	1	3.013042	-56.01891	-0.0024445	0.0001741	10
	54	116	0.400641	1.985356	-2.952729	1	3.558124	-56.08391	-0.0022677	0.0001685	10
	55	127	0.316723	2.370769	-3.491208	1	4.22008	-55.82082	-0.0020804	0.0001663	10
	56	141	0.2520161	2.833294	-4.09723	1	4.981451	-55.33558	-0.0018612	0.000164	10
	57	162	0.2003205	3.395712	-4.800159	1	5.879828	-54.72377	-0.0016298	0.0001613	10
